T58F0 000:003.110   SEGGER J-Link V7.98a Log File
T58F0 000:003.192   DLL Compiled: Jul 19 2024 14:57:58
T58F0 000:003.195   Logging started @ 2024-11-30 10:06
T58F0 000:003.197   Process: D:\keil\UV4\UV4.exe
T58F0 000:003.202 - 3.200ms
T58F0 000:003.206 JLINK_SetWarnOutHandler(...)
T58F0 000:003.209 - 0.003ms
T58F0 000:003.214 JLINK_OpenEx(...)
T58F0 000:004.986   Firmware: J-Link V9 compiled May  7 2021 16:26:12
T58F0 000:006.531   Firmware: J-Link V9 compiled May  7 2021 16:26:12
T58F0 000:006.647   Decompressing FW timestamp took 97 us
T58F0 000:017.251   Hardware: V9.40
T58F0 000:017.260   S/N: 69400549
T58F0 000:017.263   OEM: SEGGER
T58F0 000:017.267   Feature(s): RDI, GDB, FlashDL, FlashBP, JFlash
T58F0 000:018.788   Bootloader: (Could not read)
T58F0 000:020.404   TELNET listener socket opened on port 19021
T58F0 000:020.469   WEBSRV WEBSRV_Init(): Starting webserver thread(s)
T58F0 000:020.553   WEBSRV Webserver running on local port 19080
T58F0 000:020.610   Looking for J-Link GUI Server exe at: D:\keil\ARM\Segger\JLinkGUIServer.exe
T58F0 000:020.672   Looking for J-Link GUI Server exe at: C:\Program Files\SEGGER\JLink_V798a\JLinkGUIServer.exe
T58F0 000:020.691   Forking J-Link GUI Server: C:\Program Files\SEGGER\JLink_V798a\JLinkGUIServer.exe
T58F0 000:078.564   J-Link GUI Server info: "J-Link GUI server V7.98a "
T58F0 000:127.460 - 124.242ms returns "O.K."
T58F0 000:127.478 JLINK_GetEmuCaps()
T58F0 000:127.482 - 0.003ms returns 0xB9FF7BBF
T58F0 000:127.489 JLINK_TIF_GetAvailable(...)
T58F0 000:127.916 - 0.426ms
T58F0 000:127.927 JLINK_SetErrorOutHandler(...)
T58F0 000:127.930 - 0.003ms
T58F0 000:127.946 JLINK_ExecCommand("ProjectFile = "E:\ºÌêÏ\D71276\D71276\Projects\MDK-ARM\JLinkSettings.ini"", ...). 
T58F0 000:136.475   Ref file found at: D:\keil\ARM\Segger\JLinkDevices.ref
T58F0 000:136.525   REF file references invalid XML file: C:\Program Files\SEGGER\JLink_V798a\JLinkDevices.xml
T58F0 000:153.178   Device "CORTEX-M0+" selected.
T58F0 000:153.305 - 25.360ms returns 0x00
T58F0 000:159.755 JLINK_ExecCommand("Device = PY32C642x5", ...). 
T58F0 000:163.321   Device "CORTEX-M0+" selected.
T58F0 000:163.457 - 3.690ms returns 0x00
T58F0 000:163.465 JLINK_ExecCommand("DisableConnectionTimeout", ...). 
T58F0 000:163.470   ERROR: Unknown command
T58F0 000:163.474 - 0.004ms returns 0x01
T58F0 000:163.482 JLINK_GetHardwareVersion()
T58F0 000:163.486 - 0.007ms returns 94000
T58F0 000:163.489 JLINK_GetDLLVersion()
T58F0 000:163.491 - 0.002ms returns 79801
T58F0 000:163.494 JLINK_GetOEMString(...)
T58F0 000:163.497 JLINK_GetFirmwareString(...)
T58F0 000:163.500 - 0.002ms
T58F0 000:180.864 JLINK_GetDLLVersion()
T58F0 000:180.878 - 0.014ms returns 79801
T58F0 000:180.882 JLINK_GetCompileDateTime()
T58F0 000:180.884 - 0.002ms
T58F0 000:191.274 JLINK_GetFirmwareString(...)
T58F0 000:191.288 - 0.013ms
T58F0 000:198.887 JLINK_GetHardwareVersion()
T58F0 000:198.902 - 0.015ms returns 94000
T58F0 000:201.729 JLINK_GetSN()
T58F0 000:201.740 - 0.011ms returns 69400549
T58F0 000:207.867 JLINK_GetOEMString(...)
T58F0 000:217.041 JLINK_TIF_Select(JLINKARM_TIF_SWD)
T58F0 000:218.805 - 1.763ms returns 0x00
T58F0 000:218.813 JLINK_HasError()
T58F0 000:218.830 JLINK_SetSpeed(1000)
T58F0 000:219.239 - 0.409ms
T58F0 000:219.251 JLINK_GetId()
T58F0 000:223.372   Found SW-DP with ID 0x0BC11477
T58F0 000:232.192   DPIDR: 0x0BC11477
T58F0 000:234.497   CoreSight SoC-400 or earlier
T58F0 000:237.782   Scanning AP map to find all available APs
T58F0 000:241.222   AP[1]: Stopped AP scan as end of AP map has been reached
T58F0 000:243.158   AP[0]: AHB-AP (IDR: 0x04770031)
T58F0 000:245.353   Iterating through AP map to find AHB-AP to use
T58F0 000:249.153   AP[0]: Core found
T58F0 000:253.161   AP[0]: AHB-AP ROM base: 0xE00FF000
T58F0 000:257.350   CPUID register: 0x410CC601. Implementer code: 0x41 (ARM)
T58F0 000:259.212   Found Cortex-M0 r0p1, Little endian.
T58F0 000:260.178   -- Max. mem block: 0x00010E60
T58F0 000:261.046   CPU_ReadMem(4 bytes @ 0xE000EDF0)
T58F0 000:261.946   CPU_WriteMem(4 bytes @ 0xE000EDF0)
T58F0 000:262.889   CPU_ReadMem(4 bytes @ 0xE0002000)
T58F0 000:265.961   FPUnit: 4 code (BP) slots and 0 literal slots
T58F0 000:265.973   CPU_ReadMem(4 bytes @ 0xE000EDFC)
T58F0 000:266.899   CPU_WriteMem(4 bytes @ 0xE000EDFC)
T58F0 000:267.823   CPU_ReadMem(4 bytes @ 0xE0001000)
T58F0 000:268.748   CPU_WriteMem(4 bytes @ 0xE0001000)
T58F0 000:271.898   CoreSight components:
T58F0 000:273.989   ROMTbl[0] @ E00FF000
T58F0 000:273.999   CPU_ReadMem(64 bytes @ 0xE00FF000)
T58F0 000:275.979   CPU_ReadMem(32 bytes @ 0xE000EFE0)
T58F0 000:279.615   [0][0]: E000E000 CID B105E00D PID 000BB008 SCS
T58F0 000:279.628   CPU_ReadMem(32 bytes @ 0xE0001FE0)
T58F0 000:284.335   [0][1]: E0001000 CID B105E00D PID 000BB00A DWT
T58F0 000:284.348   CPU_ReadMem(32 bytes @ 0xE0002FE0)
T58F0 000:289.225   [0][2]: E0002000 CID B105E00D PID 000BB00B FPB
T58F0 000:289.764 - 70.513ms returns 0x0BC11477
T58F0 000:289.819 JLINK_GetDLLVersion()
T58F0 000:289.822 - 0.003ms returns 79801
T58F0 000:289.826 JLINK_CORE_GetFound()
T58F0 000:289.828 - 0.002ms returns 0x60000FF
T58F0 000:289.832 JLINK_GetDebugInfo(0x100 = JLINKARM_ROM_TABLE_ADDR_INDEX)
T58F0 000:289.835   Value=0xE00FF000
T58F0 000:289.838 - 0.006ms returns 0
T58F0 000:291.732 JLINK_GetDebugInfo(0x100 = JLINKARM_ROM_TABLE_ADDR_INDEX)
T58F0 000:291.742   Value=0xE00FF000
T58F0 000:291.746 - 0.013ms returns 0
T58F0 000:291.749 JLINK_GetDebugInfo(0x101 = JLINKARM_DEBUG_INFO_ETM_ADDR_INDEX)
T58F0 000:291.751   Value=0x00000000
T58F0 000:291.755 - 0.005ms returns 0
T58F0 000:291.758 JLINK_ReadMemEx(0xE0041FF0, 0x10 Bytes, Flags = 0x02000004)
T58F0 000:291.787   CPU_ReadMem(16 bytes @ 0xE0041FF0)
T58F0 000:292.833   Data:  00 00 00 00 00 00 00 00 00 00 00 00 00 00 00 00
T58F0 000:292.838 - 1.079ms returns 16 (0x10)
T58F0 000:292.841 JLINK_GetDebugInfo(0x102 = JLINKARM_DEBUG_INFO_MTB_ADDR_INDEX)
T58F0 000:292.844   Value=0x00000000
T58F0 000:292.847 - 0.006ms returns 0
T58F0 000:292.850 JLINK_GetDebugInfo(0x103 = JLINKARM_DEBUG_INFO_TPIU_ADDR_INDEX)
T58F0 000:292.853   Value=0x00000000
T58F0 000:292.856 - 0.005ms returns 0
T58F0 000:292.859 JLINK_GetDebugInfo(0x104 = JLINKARM_DEBUG_INFO_ITM_ADDR_INDEX)
T58F0 000:292.861   Value=0xE0000000
T58F0 000:292.865 - 0.005ms returns 0
T58F0 000:292.868 JLINK_GetDebugInfo(0x105 = JLINKARM_DEBUG_INFO_DWT_ADDR_INDEX)
T58F0 000:292.870   Value=0xE0001000
T58F0 000:292.873 - 0.005ms returns 0
T58F0 000:292.876 JLINK_GetDebugInfo(0x106 = JLINKARM_DEBUG_INFO_FPB_ADDR_INDEX)
T58F0 000:292.879   Value=0xE0002000
T58F0 000:292.882 - 0.005ms returns 0
T58F0 000:292.885 JLINK_GetDebugInfo(0x107 = JLINKARM_DEBUG_INFO_NVIC_ADDR_INDEX)
T58F0 000:292.887   Value=0xE000E000
T58F0 000:292.890 - 0.005ms returns 0
T58F0 000:292.893 JLINK_GetDebugInfo(0x10C = JLINKARM_DEBUG_INFO_DBG_ADDR_INDEX)
T58F0 000:292.896   Value=0xE000EDF0
T58F0 000:292.899 - 0.005ms returns 0
T58F0 000:292.902 JLINK_GetDebugInfo(0x01 = Unknown)
T58F0 000:292.904   Value=0x00000000
T58F0 000:292.908 - 0.005ms returns 0
T58F0 000:292.911 JLINK_ReadMemU32(0xE000ED00, 0x1 Items)
T58F0 000:292.914   CPU_ReadMem(4 bytes @ 0xE000ED00)
T58F0 000:293.822   Data:  01 C6 0C 41
T58F0 000:293.849   Debug reg: CPUID
T58F0 000:293.857 - 0.945ms returns 1 (0x1)
T58F0 000:293.865 JLINK_GetDebugInfo(0x10F = JLINKARM_DEBUG_INFO_HAS_CORTEX_M_SECURITY_EXT_INDEX)
T58F0 000:293.869   Value=0x00000000
T58F0 000:293.875 - 0.011ms returns 0
T58F0 000:293.881 JLINK_HasError()
T58F0 000:293.887 JLINK_SetResetType(JLINKARM_CM3_RESET_TYPE_NORMAL)
T58F0 000:293.892 - 0.004ms returns JLINKARM_CM3_RESET_TYPE_NORMAL
T58F0 000:293.897 JLINK_Reset()
T58F0 000:293.923   CPU is running
T58F0 000:293.932   CPU_WriteMem(4 bytes @ 0xE000EDF0)
T58F0 000:294.835   CPU is running
T58F0 000:294.840   CPU_WriteMem(4 bytes @ 0xE000EDFC)
T58F0 000:298.182   Reset: Halt core after reset via DEMCR.VC_CORERESET.
T58F0 000:301.087   Reset: Reset device via AIRCR.SYSRESETREQ.
T58F0 000:301.097   CPU is running
T58F0 000:301.102   CPU_WriteMem(4 bytes @ 0xE000ED0C)
T58F0 000:355.830   CPU_ReadMem(4 bytes @ 0xE000EDF0)
T58F0 000:356.742   CPU_ReadMem(4 bytes @ 0xE000EDF0)
T58F0 000:366.176   CPU_WriteMem(4 bytes @ 0xE000EDFC)
T58F0 000:373.594   CPU_ReadMem(4 bytes @ 0xE000EDF0)
T58F0 000:382.881   CPU_WriteMem(4 bytes @ 0xE0002000)
T58F0 000:383.835   CPU_ReadMem(4 bytes @ 0xE000EDFC)
T58F0 000:384.753   CPU_ReadMem(4 bytes @ 0xE0001000)
T58F0 000:385.643   CPU_WriteMem(4 bytes @ 0xE0001000)
T58F0 000:386.590 - 92.693ms
T58F0 000:386.654 JLINK_Halt()
T58F0 000:386.660 - 0.005ms returns 0x00
T58F0 000:386.667 JLINK_ReadMemU32(0xE000EDF0, 0x1 Items)
T58F0 000:386.678   CPU_ReadMem(4 bytes @ 0xE000EDF0)
T58F0 000:387.544   Data:  03 00 03 00
T58F0 000:387.553   Debug reg: DHCSR
T58F0 000:387.560 - 0.893ms returns 1 (0x1)
T58F0 000:387.582 JLINK_WriteU32_64(0xE000EDF0, 0xA05F0003)
T58F0 000:387.587   Debug reg: DHCSR
T58F0 000:387.940   CPU_WriteMem(4 bytes @ 0xE000EDF0)
T58F0 000:388.909 - 1.327ms returns 0 (0x00000000)
T58F0 000:388.920 JLINK_WriteU32_64(0xE000EDFC, 0x01000000)
T58F0 000:388.926   Debug reg: DEMCR
T58F0 000:388.946   CPU_WriteMem(4 bytes @ 0xE000EDFC)
T58F0 000:389.838 - 0.917ms returns 0 (0x00000000)
T58F0 000:408.580 JLINK_GetHWStatus(...)
T58F0 000:409.043 - 0.462ms returns 0
T58F0 000:419.272 JLINK_GetNumBPUnits(Type = 0xFFFFFF00)
T58F0 000:419.291 - 0.019ms returns 0x04
T58F0 000:419.297 JLINK_GetNumBPUnits(Type = 0xF0)
T58F0 000:419.302 - 0.004ms returns 0x2000
T58F0 000:419.307 JLINK_GetNumWPUnits()
T58F0 000:419.312 - 0.004ms returns 2
T58F0 000:427.660 JLINK_GetSpeed()
T58F0 000:427.675 - 0.014ms returns 1000
T58F0 000:433.642 JLINK_ReadMemU32(0xE000E004, 0x1 Items)
T58F0 000:433.663   CPU_ReadMem(4 bytes @ 0xE000E004)
T58F0 000:434.543   Data:  00 00 00 00
T58F0 000:434.548 - 0.906ms returns 1 (0x1)
T58F0 000:434.556 JLINK_Halt()
T58F0 000:434.559 - 0.002ms returns 0x00
T58F0 000:434.562 JLINK_IsHalted()
T58F0 000:434.565 - 0.003ms returns TRUE
T58F0 000:437.465 JLINK_WriteMem(0x20000000, 0x290 Bytes, ...)
T58F0 000:437.472   Data:  00 BE 0A E0 0D 78 2D 06 68 40 08 24 40 00 00 D3 ...
T58F0 000:437.688   CPU_WriteMem(656 bytes @ 0x20000000)
T58F0 000:449.988 - 12.522ms returns 0x290
T58F0 000:450.019 JLINK_HasError()
T58F0 000:450.038 JLINK_WriteReg(R0, 0x08000000)
T58F0 000:450.044 - 0.019ms returns 0
T58F0 000:450.047 JLINK_WriteReg(R1, 0x00B71B00)
T58F0 000:450.049 - 0.002ms returns 0
T58F0 000:450.052 JLINK_WriteReg(R2, 0x00000001)
T58F0 000:450.055 - 0.002ms returns 0
T58F0 000:450.057 JLINK_WriteReg(R3, 0x00000000)
T58F0 000:450.060 - 0.002ms returns 0
T58F0 000:450.063 JLINK_WriteReg(R4, 0x00000000)
T58F0 000:450.065 - 0.002ms returns 0
T58F0 000:450.068 JLINK_WriteReg(R5, 0x00000000)
T58F0 000:450.070 - 0.002ms returns 0
T58F0 000:450.073 JLINK_WriteReg(R6, 0x00000000)
T58F0 000:450.076 - 0.002ms returns 0
T58F0 000:450.078 JLINK_WriteReg(R7, 0x00000000)
T58F0 000:450.081 - 0.002ms returns 0
T58F0 000:450.086 JLINK_WriteReg(R8, 0x00000000)
T58F0 000:450.089 - 0.005ms returns 0
T58F0 000:450.092 JLINK_WriteReg(R9, 0x20000288)
T58F0 000:450.094 - 0.002ms returns 0
T58F0 000:450.097 JLINK_WriteReg(R10, 0x00000000)
T58F0 000:450.099 - 0.002ms returns 0
T58F0 000:450.102 JLINK_WriteReg(R11, 0x00000000)
T58F0 000:450.105 - 0.002ms returns 0
T58F0 000:450.108 JLINK_WriteReg(R12, 0x00000000)
T58F0 000:450.110 - 0.002ms returns 0
T58F0 000:450.113 JLINK_WriteReg(R13 (SP), 0x20000800)
T58F0 000:450.116 - 0.003ms returns 0
T58F0 000:450.119 JLINK_WriteReg(R14, 0x20000001)
T58F0 000:450.121 - 0.002ms returns 0
T58F0 000:450.127 JLINK_WriteReg(R15 (PC), 0x20000022)
T58F0 000:450.130 - 0.005ms returns 0
T58F0 000:450.133 JLINK_WriteReg(XPSR, 0x01000000)
T58F0 000:450.135 - 0.002ms returns 0
T58F0 000:450.138 JLINK_WriteReg(MSP, 0x20000800)
T58F0 000:450.140 - 0.002ms returns 0
T58F0 000:450.143 JLINK_WriteReg(PSP, 0x20000800)
T58F0 000:450.146 - 0.002ms returns 0
T58F0 000:450.148 JLINK_WriteReg(CFBP, 0x00000000)
T58F0 000:450.151 - 0.002ms returns 0
T58F0 000:450.154 JLINK_SetBPEx(Addr = 0x20000000, Type = 0xFFFFFFF2)
T58F0 000:450.165   CPU_ReadMem(4 bytes @ 0x20000000)
T58F0 000:451.079   CPU_WriteMem(4 bytes @ 0x20000000)
T58F0 000:452.007   CPU_ReadMem(4 bytes @ 0x20000000)
T58F0 000:452.947   CPU_WriteMem(4 bytes @ 0x20000000)
T58F0 000:453.874   CPU_ReadMem(2 bytes @ 0x20000000)
T58F0 000:454.731 - 4.576ms returns 0x00000001
T58F0 000:454.737 JLINK_Go()
T58F0 000:454.743   CPU_WriteMem(2 bytes @ 0x20000000)
T58F0 000:455.676   CPU_ReadMem(4 bytes @ 0xE0001000)
T58F0 000:456.585   CPU_WriteMem(4 bytes @ 0xE0001000)
T58F0 000:457.560   CPU_WriteMem(4 bytes @ 0xE0002008)
T58F0 000:457.564   CPU_WriteMem(4 bytes @ 0xE000200C)
T58F0 000:457.568   CPU_WriteMem(4 bytes @ 0xE0002010)
T58F0 000:457.572   CPU_WriteMem(4 bytes @ 0xE0002014)
T58F0 000:459.993   CPU_WriteMem(4 bytes @ 0xE0001004)
T58F0 000:471.687   Memory map 'after startup completion point' is active
T58F0 000:471.701 - 16.963ms
T58F0 000:471.710 JLINK_IsHalted()
T58F0 000:480.046   CPU_ReadMem(2 bytes @ 0x20000000)
T58F0 000:480.894 - 9.184ms returns TRUE
T58F0 000:480.902 JLINK_ReadReg(R15 (PC))
T58F0 000:480.907 - 0.004ms returns 0x20000000
T58F0 000:480.948 JLINK_ClrBPEx(BPHandle = 0x00000001)
T58F0 000:480.952 - 0.003ms returns 0x00
T58F0 000:480.956 JLINK_ReadReg(R0)
T58F0 000:480.958 - 0.002ms returns 0x00000000
T58F0 000:481.141 JLINK_HasError()
T58F0 000:481.146 JLINK_WriteReg(R0, 0x08000000)
T58F0 000:481.150 - 0.003ms returns 0
T58F0 000:481.153 JLINK_WriteReg(R1, 0x00001000)
T58F0 000:481.155 - 0.002ms returns 0
T58F0 000:481.158 JLINK_WriteReg(R2, 0x000000FF)
T58F0 000:481.161 - 0.002ms returns 0
T58F0 000:481.164 JLINK_WriteReg(R3, 0x00000000)
T58F0 000:481.166 - 0.002ms returns 0
T58F0 000:481.169 JLINK_WriteReg(R4, 0x00000000)
T58F0 000:481.171 - 0.002ms returns 0
T58F0 000:481.174 JLINK_WriteReg(R5, 0x00000000)
T58F0 000:481.176 - 0.002ms returns 0
T58F0 000:481.179 JLINK_WriteReg(R6, 0x00000000)
T58F0 000:481.182 - 0.002ms returns 0
T58F0 000:481.185 JLINK_WriteReg(R7, 0x00000000)
T58F0 000:481.187 - 0.002ms returns 0
T58F0 000:481.190 JLINK_WriteReg(R8, 0x00000000)
T58F0 000:481.192 - 0.002ms returns 0
T58F0 000:481.195 JLINK_WriteReg(R9, 0x20000288)
T58F0 000:481.197 - 0.002ms returns 0
T58F0 000:481.200 JLINK_WriteReg(R10, 0x00000000)
T58F0 000:481.203 - 0.002ms returns 0
T58F0 000:481.206 JLINK_WriteReg(R11, 0x00000000)
T58F0 000:481.208 - 0.002ms returns 0
T58F0 000:481.211 JLINK_WriteReg(R12, 0x00000000)
T58F0 000:481.214 - 0.002ms returns 0
T58F0 000:481.217 JLINK_WriteReg(R13 (SP), 0x20000800)
T58F0 000:481.220 - 0.003ms returns 0
T58F0 000:481.223 JLINK_WriteReg(R14, 0x20000001)
T58F0 000:481.225 - 0.002ms returns 0
T58F0 000:481.228 JLINK_WriteReg(R15 (PC), 0x20000164)
T58F0 000:481.230 - 0.002ms returns 0
T58F0 000:481.233 JLINK_WriteReg(XPSR, 0x01000000)
T58F0 000:481.236 - 0.002ms returns 0
T58F0 000:481.239 JLINK_WriteReg(MSP, 0x20000800)
T58F0 000:481.241 - 0.002ms returns 0
T58F0 000:481.244 JLINK_WriteReg(PSP, 0x20000800)
T58F0 000:481.246 - 0.002ms returns 0
T58F0 000:481.249 JLINK_WriteReg(CFBP, 0x00000000)
T58F0 000:481.252 - 0.002ms returns 0
T58F0 000:481.255 JLINK_SetBPEx(Addr = 0x20000000, Type = 0xFFFFFFF2)
T58F0 000:481.258 - 0.003ms returns 0x00000002
T58F0 000:481.261 JLINK_Go()
T58F0 000:481.268   CPU_ReadMem(4 bytes @ 0xE0001000)
T58F0 000:489.903 - 8.641ms
T58F0 000:489.920 JLINK_IsHalted()
T58F0 000:498.394   CPU_ReadMem(2 bytes @ 0x20000000)
T58F0 000:499.335 - 9.414ms returns TRUE
T58F0 000:499.367 JLINK_ReadReg(R15 (PC))
T58F0 000:499.380 - 0.012ms returns 0x20000000
T58F0 000:499.388 JLINK_ClrBPEx(BPHandle = 0x00000002)
T58F0 000:499.395 - 0.007ms returns 0x00
T58F0 000:499.402 JLINK_ReadReg(R0)
T58F0 000:499.409 - 0.006ms returns 0x00000001
T58F0 000:499.417 JLINK_HasError()
T58F0 000:499.425 JLINK_WriteReg(R0, 0x08000000)
T58F0 000:499.433 - 0.007ms returns 0
T58F0 000:499.440 JLINK_WriteReg(R1, 0x00001000)
T58F0 000:499.446 - 0.006ms returns 0
T58F0 000:499.453 JLINK_WriteReg(R2, 0x000000FF)
T58F0 000:499.536 - 0.082ms returns 0
T58F0 000:499.549 JLINK_WriteReg(R3, 0x00000000)
T58F0 000:499.555 - 0.006ms returns 0
T58F0 000:499.562 JLINK_WriteReg(R4, 0x00000000)
T58F0 000:499.568 - 0.006ms returns 0
T58F0 000:499.575 JLINK_WriteReg(R5, 0x00000000)
T58F0 000:499.581 - 0.006ms returns 0
T58F0 000:499.588 JLINK_WriteReg(R6, 0x00000000)
T58F0 000:499.594 - 0.006ms returns 0
T58F0 000:499.601 JLINK_WriteReg(R7, 0x00000000)
T58F0 000:499.607 - 0.006ms returns 0
T58F0 000:499.614 JLINK_WriteReg(R8, 0x00000000)
T58F0 000:499.620 - 0.006ms returns 0
T58F0 000:499.626 JLINK_WriteReg(R9, 0x20000288)
T58F0 000:499.632 - 0.005ms returns 0
T58F0 000:499.639 JLINK_WriteReg(R10, 0x00000000)
T58F0 000:499.645 - 0.006ms returns 0
T58F0 000:499.652 JLINK_WriteReg(R11, 0x00000000)
T58F0 000:499.658 - 0.006ms returns 0
T58F0 000:499.665 JLINK_WriteReg(R12, 0x00000000)
T58F0 000:499.671 - 0.005ms returns 0
T58F0 000:499.678 JLINK_WriteReg(R13 (SP), 0x20000800)
T58F0 000:499.684 - 0.006ms returns 0
T58F0 000:499.691 JLINK_WriteReg(R14, 0x20000001)
T58F0 000:499.698 - 0.006ms returns 0
T58F0 000:499.704 JLINK_WriteReg(R15 (PC), 0x20000100)
T58F0 000:499.710 - 0.006ms returns 0
T58F0 000:499.718 JLINK_WriteReg(XPSR, 0x01000000)
T58F0 000:499.724 - 0.006ms returns 0
T58F0 000:499.730 JLINK_WriteReg(MSP, 0x20000800)
T58F0 000:499.736 - 0.006ms returns 0
T58F0 000:499.743 JLINK_WriteReg(PSP, 0x20000800)
T58F0 000:499.749 - 0.005ms returns 0
T58F0 000:499.756 JLINK_WriteReg(CFBP, 0x00000000)
T58F0 000:499.762 - 0.006ms returns 0
T58F0 000:499.770 JLINK_SetBPEx(Addr = 0x20000000, Type = 0xFFFFFFF2)
T58F0 000:499.778 - 0.008ms returns 0x00000003
T58F0 000:499.785 JLINK_Go()
T58F0 000:499.804   CPU_ReadMem(4 bytes @ 0xE0001000)
T58F0 000:508.382 - 8.596ms
T58F0 000:508.398 JLINK_IsHalted()
T58F0 000:512.168 - 3.770ms returns FALSE
T58F0 000:512.175 JLINK_HasError()
T58F0 000:522.360 JLINK_IsHalted()
T58F0 000:530.855   CPU_ReadMem(2 bytes @ 0x20000000)
T58F0 000:531.734 - 9.373ms returns TRUE
T58F0 000:531.745 JLINK_ReadReg(R15 (PC))
T58F0 000:531.751 - 0.006ms returns 0x20000000
T58F0 000:531.754 JLINK_ClrBPEx(BPHandle = 0x00000003)
T58F0 000:531.757 - 0.003ms returns 0x00
T58F0 000:531.761 JLINK_ReadReg(R0)
T58F0 000:531.763 - 0.002ms returns 0x00000000
T58F0 000:532.936 JLINK_HasError()
T58F0 000:532.951 JLINK_WriteReg(R0, 0x08001000)
T58F0 000:532.959 - 0.007ms returns 0
T58F0 000:532.965 JLINK_WriteReg(R1, 0x00001000)
T58F0 000:532.970 - 0.005ms returns 0
T58F0 000:532.976 JLINK_WriteReg(R2, 0x000000FF)
T58F0 000:532.980 - 0.004ms returns 0
T58F0 000:532.986 JLINK_WriteReg(R3, 0x00000000)
T58F0 000:532.990 - 0.004ms returns 0
T58F0 000:532.996 JLINK_WriteReg(R4, 0x00000000)
T58F0 000:533.001 - 0.004ms returns 0
T58F0 000:533.006 JLINK_WriteReg(R5, 0x00000000)
T58F0 000:533.011 - 0.004ms returns 0
T58F0 000:533.016 JLINK_WriteReg(R6, 0x00000000)
T58F0 000:533.021 - 0.004ms returns 0
T58F0 000:533.026 JLINK_WriteReg(R7, 0x00000000)
T58F0 000:533.031 - 0.004ms returns 0
T58F0 000:533.044 JLINK_WriteReg(R8, 0x00000000)
T58F0 000:533.048 - 0.004ms returns 0
T58F0 000:533.051 JLINK_WriteReg(R9, 0x20000288)
T58F0 000:533.054 - 0.002ms returns 0
T58F0 000:533.057 JLINK_WriteReg(R10, 0x00000000)
T58F0 000:533.059 - 0.002ms returns 0
T58F0 000:533.062 JLINK_WriteReg(R11, 0x00000000)
T58F0 000:533.065 - 0.002ms returns 0
T58F0 000:533.068 JLINK_WriteReg(R12, 0x00000000)
T58F0 000:533.070 - 0.002ms returns 0
T58F0 000:533.073 JLINK_WriteReg(R13 (SP), 0x20000800)
T58F0 000:533.076 - 0.002ms returns 0
T58F0 000:533.079 JLINK_WriteReg(R14, 0x20000001)
T58F0 000:533.081 - 0.002ms returns 0
T58F0 000:533.084 JLINK_WriteReg(R15 (PC), 0x20000164)
T58F0 000:533.086 - 0.002ms returns 0
T58F0 000:533.089 JLINK_WriteReg(XPSR, 0x01000000)
T58F0 000:533.092 - 0.002ms returns 0
T58F0 000:533.095 JLINK_WriteReg(MSP, 0x20000800)
T58F0 000:533.097 - 0.002ms returns 0
T58F0 000:533.100 JLINK_WriteReg(PSP, 0x20000800)
T58F0 000:533.102 - 0.002ms returns 0
T58F0 000:533.109 JLINK_WriteReg(CFBP, 0x00000000)
T58F0 000:533.114 - 0.005ms returns 0
T58F0 000:533.118 JLINK_SetBPEx(Addr = 0x20000000, Type = 0xFFFFFFF2)
T58F0 000:533.121 - 0.003ms returns 0x00000004
T58F0 000:533.124 JLINK_Go()
T58F0 000:533.132   CPU_ReadMem(4 bytes @ 0xE0001000)
T58F0 000:541.767 - 8.642ms
T58F0 000:541.779 JLINK_IsHalted()
T58F0 000:550.206   CPU_ReadMem(2 bytes @ 0x20000000)
T58F0 000:551.218 - 9.438ms returns TRUE
T58F0 000:551.226 JLINK_ReadReg(R15 (PC))
T58F0 000:551.232 - 0.005ms returns 0x20000000
T58F0 000:551.236 JLINK_ClrBPEx(BPHandle = 0x00000004)
T58F0 000:551.239 - 0.003ms returns 0x00
T58F0 000:551.278 JLINK_ReadReg(R0)
T58F0 000:551.281 - 0.003ms returns 0x00000001
T58F0 000:551.285 JLINK_HasError()
T58F0 000:551.289 JLINK_WriteReg(R0, 0x08001000)
T58F0 000:551.292 - 0.003ms returns 0
T58F0 000:551.295 JLINK_WriteReg(R1, 0x00001000)
T58F0 000:551.297 - 0.002ms returns 0
T58F0 000:551.300 JLINK_WriteReg(R2, 0x000000FF)
T58F0 000:551.303 - 0.002ms returns 0
T58F0 000:551.306 JLINK_WriteReg(R3, 0x00000000)
T58F0 000:551.308 - 0.002ms returns 0
T58F0 000:551.311 JLINK_WriteReg(R4, 0x00000000)
T58F0 000:551.313 - 0.002ms returns 0
T58F0 000:551.316 JLINK_WriteReg(R5, 0x00000000)
T58F0 000:551.319 - 0.002ms returns 0
T58F0 000:551.321 JLINK_WriteReg(R6, 0x00000000)
T58F0 000:551.324 - 0.002ms returns 0
T58F0 000:551.327 JLINK_WriteReg(R7, 0x00000000)
T58F0 000:551.329 - 0.002ms returns 0
T58F0 000:551.332 JLINK_WriteReg(R8, 0x00000000)
T58F0 000:551.335 - 0.002ms returns 0
T58F0 000:551.338 JLINK_WriteReg(R9, 0x20000288)
T58F0 000:551.340 - 0.002ms returns 0
T58F0 000:551.343 JLINK_WriteReg(R10, 0x00000000)
T58F0 000:551.345 - 0.002ms returns 0
T58F0 000:551.348 JLINK_WriteReg(R11, 0x00000000)
T58F0 000:551.350 - 0.002ms returns 0
T58F0 000:551.353 JLINK_WriteReg(R12, 0x00000000)
T58F0 000:551.356 - 0.002ms returns 0
T58F0 000:551.359 JLINK_WriteReg(R13 (SP), 0x20000800)
T58F0 000:551.362 - 0.002ms returns 0
T58F0 000:551.364 JLINK_WriteReg(R14, 0x20000001)
T58F0 000:551.367 - 0.002ms returns 0
T58F0 000:551.370 JLINK_WriteReg(R15 (PC), 0x20000100)
T58F0 000:551.372 - 0.002ms returns 0
T58F0 000:551.375 JLINK_WriteReg(XPSR, 0x01000000)
T58F0 000:551.378 - 0.002ms returns 0
T58F0 000:551.380 JLINK_WriteReg(MSP, 0x20000800)
T58F0 000:551.383 - 0.002ms returns 0
T58F0 000:551.386 JLINK_WriteReg(PSP, 0x20000800)
T58F0 000:551.388 - 0.002ms returns 0
T58F0 000:551.391 JLINK_WriteReg(CFBP, 0x00000000)
T58F0 000:551.393 - 0.002ms returns 0
T58F0 000:551.397 JLINK_SetBPEx(Addr = 0x20000000, Type = 0xFFFFFFF2)
T58F0 000:551.400 - 0.003ms returns 0x00000005
T58F0 000:551.403 JLINK_Go()
T58F0 000:551.409   CPU_ReadMem(4 bytes @ 0xE0001000)
T58F0 000:560.077 - 8.673ms
T58F0 000:560.091 JLINK_IsHalted()
T58F0 000:563.916 - 3.824ms returns FALSE
T58F0 000:563.923 JLINK_HasError()
T58F0 000:566.474 JLINK_IsHalted()
T58F0 000:574.869   CPU_ReadMem(2 bytes @ 0x20000000)
T58F0 000:575.769 - 9.294ms returns TRUE
T58F0 000:575.783 JLINK_ReadReg(R15 (PC))
T58F0 000:575.794 - 0.011ms returns 0x20000000
T58F0 000:575.800 JLINK_ClrBPEx(BPHandle = 0x00000005)
T58F0 000:575.805 - 0.005ms returns 0x00
T58F0 000:575.811 JLINK_ReadReg(R0)
T58F0 000:575.815 - 0.004ms returns 0x00000000
T58F0 000:576.290 JLINK_HasError()
T58F0 000:576.300 JLINK_WriteReg(R0, 0x08002000)
T58F0 000:576.307 - 0.006ms returns 0
T58F0 000:576.312 JLINK_WriteReg(R1, 0x00001000)
T58F0 000:576.317 - 0.004ms returns 0
T58F0 000:576.322 JLINK_WriteReg(R2, 0x000000FF)
T58F0 000:576.326 - 0.004ms returns 0
T58F0 000:576.331 JLINK_WriteReg(R3, 0x00000000)
T58F0 000:576.335 - 0.004ms returns 0
T58F0 000:576.340 JLINK_WriteReg(R4, 0x00000000)
T58F0 000:576.345 - 0.004ms returns 0
T58F0 000:576.350 JLINK_WriteReg(R5, 0x00000000)
T58F0 000:576.354 - 0.004ms returns 0
T58F0 000:576.359 JLINK_WriteReg(R6, 0x00000000)
T58F0 000:576.363 - 0.004ms returns 0
T58F0 000:576.368 JLINK_WriteReg(R7, 0x00000000)
T58F0 000:576.373 - 0.004ms returns 0
T58F0 000:576.378 JLINK_WriteReg(R8, 0x00000000)
T58F0 000:576.391 - 0.013ms returns 0
T58F0 000:576.397 JLINK_WriteReg(R9, 0x20000288)
T58F0 000:576.418 - 0.021ms returns 0
T58F0 000:576.424 JLINK_WriteReg(R10, 0x00000000)
T58F0 000:576.428 - 0.004ms returns 0
T58F0 000:576.433 JLINK_WriteReg(R11, 0x00000000)
T58F0 000:576.437 - 0.004ms returns 0
T58F0 000:576.443 JLINK_WriteReg(R12, 0x00000000)
T58F0 000:576.447 - 0.004ms returns 0
T58F0 000:576.452 JLINK_WriteReg(R13 (SP), 0x20000800)
T58F0 000:576.457 - 0.005ms returns 0
T58F0 000:576.462 JLINK_WriteReg(R14, 0x20000001)
T58F0 000:576.467 - 0.004ms returns 0
T58F0 000:576.472 JLINK_WriteReg(R15 (PC), 0x20000164)
T58F0 000:576.476 - 0.004ms returns 0
T58F0 000:576.481 JLINK_WriteReg(XPSR, 0x01000000)
T58F0 000:576.486 - 0.004ms returns 0
T58F0 000:576.491 JLINK_WriteReg(MSP, 0x20000800)
T58F0 000:576.495 - 0.004ms returns 0
T58F0 000:576.500 JLINK_WriteReg(PSP, 0x20000800)
T58F0 000:576.505 - 0.004ms returns 0
T58F0 000:576.510 JLINK_WriteReg(CFBP, 0x00000000)
T58F0 000:576.514 - 0.004ms returns 0
T58F0 000:576.520 JLINK_SetBPEx(Addr = 0x20000000, Type = 0xFFFFFFF2)
T58F0 000:576.525 - 0.005ms returns 0x00000006
T58F0 000:576.531 JLINK_Go()
T58F0 000:576.543   CPU_ReadMem(4 bytes @ 0xE0001000)
T58F0 000:585.226 - 8.693ms
T58F0 000:585.253 JLINK_IsHalted()
T58F0 000:593.813   CPU_ReadMem(2 bytes @ 0x20000000)
T58F0 000:594.755 - 9.501ms returns TRUE
T58F0 000:594.763 JLINK_ReadReg(R15 (PC))
T58F0 000:594.769 - 0.006ms returns 0x20000000
T58F0 000:594.773 JLINK_ClrBPEx(BPHandle = 0x00000006)
T58F0 000:594.776 - 0.003ms returns 0x00
T58F0 000:594.779 JLINK_ReadReg(R0)
T58F0 000:594.782 - 0.002ms returns 0x00000001
T58F0 000:594.786 JLINK_HasError()
T58F0 000:594.790 JLINK_WriteReg(R0, 0x08002000)
T58F0 000:594.793 - 0.003ms returns 0
T58F0 000:594.797 JLINK_WriteReg(R1, 0x00001000)
T58F0 000:594.799 - 0.002ms returns 0
T58F0 000:594.803 JLINK_WriteReg(R2, 0x000000FF)
T58F0 000:594.805 - 0.002ms returns 0
T58F0 000:594.808 JLINK_WriteReg(R3, 0x00000000)
T58F0 000:594.811 - 0.002ms returns 0
T58F0 000:594.814 JLINK_WriteReg(R4, 0x00000000)
T58F0 000:594.817 - 0.002ms returns 0
T58F0 000:594.820 JLINK_WriteReg(R5, 0x00000000)
T58F0 000:594.822 - 0.002ms returns 0
T58F0 000:594.826 JLINK_WriteReg(R6, 0x00000000)
T58F0 000:594.828 - 0.002ms returns 0
T58F0 000:594.831 JLINK_WriteReg(R7, 0x00000000)
T58F0 000:594.834 - 0.002ms returns 0
T58F0 000:594.837 JLINK_WriteReg(R8, 0x00000000)
T58F0 000:594.840 - 0.002ms returns 0
T58F0 000:594.843 JLINK_WriteReg(R9, 0x20000288)
T58F0 000:594.846 - 0.002ms returns 0
T58F0 000:594.849 JLINK_WriteReg(R10, 0x00000000)
T58F0 000:594.851 - 0.002ms returns 0
T58F0 000:594.855 JLINK_WriteReg(R11, 0x00000000)
T58F0 000:594.857 - 0.002ms returns 0
T58F0 000:594.860 JLINK_WriteReg(R12, 0x00000000)
T58F0 000:594.863 - 0.002ms returns 0
T58F0 000:594.866 JLINK_WriteReg(R13 (SP), 0x20000800)
T58F0 000:594.869 - 0.003ms returns 0
T58F0 000:594.872 JLINK_WriteReg(R14, 0x20000001)
T58F0 000:594.875 - 0.002ms returns 0
T58F0 000:594.878 JLINK_WriteReg(R15 (PC), 0x20000100)
T58F0 000:594.881 - 0.002ms returns 0
T58F0 000:594.884 JLINK_WriteReg(XPSR, 0x01000000)
T58F0 000:594.887 - 0.002ms returns 0
T58F0 000:594.890 JLINK_WriteReg(MSP, 0x20000800)
T58F0 000:594.893 - 0.002ms returns 0
T58F0 000:594.896 JLINK_WriteReg(PSP, 0x20000800)
T58F0 000:594.898 - 0.002ms returns 0
T58F0 000:594.902 JLINK_WriteReg(CFBP, 0x00000000)
T58F0 000:594.904 - 0.002ms returns 0
T58F0 000:594.908 JLINK_SetBPEx(Addr = 0x20000000, Type = 0xFFFFFFF2)
T58F0 000:594.911 - 0.003ms returns 0x00000007
T58F0 000:594.915 JLINK_Go()
T58F0 000:594.922   CPU_ReadMem(4 bytes @ 0xE0001000)
T58F0 000:603.648 - 8.733ms
T58F0 000:603.664 JLINK_IsHalted()
T58F0 000:607.476 - 3.812ms returns FALSE
T58F0 000:607.490 JLINK_HasError()
T58F0 000:611.707 JLINK_IsHalted()
T58F0 000:620.212   CPU_ReadMem(2 bytes @ 0x20000000)
T58F0 000:621.231 - 9.523ms returns TRUE
T58F0 000:621.240 JLINK_ReadReg(R15 (PC))
T58F0 000:621.247 - 0.007ms returns 0x20000000
T58F0 000:621.257 JLINK_ClrBPEx(BPHandle = 0x00000007)
T58F0 000:621.265 - 0.008ms returns 0x00
T58F0 000:621.270 JLINK_ReadReg(R0)
T58F0 000:621.274 - 0.004ms returns 0x00000000
T58F0 000:621.737 JLINK_HasError()
T58F0 000:621.749 JLINK_WriteReg(R0, 0x08003000)
T58F0 000:621.754 - 0.005ms returns 0
T58F0 000:621.760 JLINK_WriteReg(R1, 0x00001000)
T58F0 000:621.764 - 0.004ms returns 0
T58F0 000:621.769 JLINK_WriteReg(R2, 0x000000FF)
T58F0 000:621.773 - 0.004ms returns 0
T58F0 000:621.778 JLINK_WriteReg(R3, 0x00000000)
T58F0 000:621.782 - 0.004ms returns 0
T58F0 000:621.787 JLINK_WriteReg(R4, 0x00000000)
T58F0 000:621.791 - 0.004ms returns 0
T58F0 000:621.796 JLINK_WriteReg(R5, 0x00000000)
T58F0 000:621.800 - 0.004ms returns 0
T58F0 000:621.805 JLINK_WriteReg(R6, 0x00000000)
T58F0 000:621.809 - 0.004ms returns 0
T58F0 000:621.814 JLINK_WriteReg(R7, 0x00000000)
T58F0 000:621.818 - 0.004ms returns 0
T58F0 000:621.823 JLINK_WriteReg(R8, 0x00000000)
T58F0 000:621.827 - 0.004ms returns 0
T58F0 000:621.832 JLINK_WriteReg(R9, 0x20000288)
T58F0 000:621.836 - 0.004ms returns 0
T58F0 000:621.841 JLINK_WriteReg(R10, 0x00000000)
T58F0 000:621.845 - 0.004ms returns 0
T58F0 000:621.850 JLINK_WriteReg(R11, 0x00000000)
T58F0 000:621.854 - 0.004ms returns 0
T58F0 000:621.859 JLINK_WriteReg(R12, 0x00000000)
T58F0 000:621.863 - 0.004ms returns 0
T58F0 000:621.868 JLINK_WriteReg(R13 (SP), 0x20000800)
T58F0 000:621.873 - 0.004ms returns 0
T58F0 000:621.878 JLINK_WriteReg(R14, 0x20000001)
T58F0 000:621.882 - 0.004ms returns 0
T58F0 000:621.887 JLINK_WriteReg(R15 (PC), 0x20000164)
T58F0 000:621.891 - 0.004ms returns 0
T58F0 000:621.896 JLINK_WriteReg(XPSR, 0x01000000)
T58F0 000:621.900 - 0.004ms returns 0
T58F0 000:621.905 JLINK_WriteReg(MSP, 0x20000800)
T58F0 000:621.909 - 0.004ms returns 0
T58F0 000:621.914 JLINK_WriteReg(PSP, 0x20000800)
T58F0 000:621.918 - 0.004ms returns 0
T58F0 000:621.923 JLINK_WriteReg(CFBP, 0x00000000)
T58F0 000:621.927 - 0.004ms returns 0
T58F0 000:621.933 JLINK_SetBPEx(Addr = 0x20000000, Type = 0xFFFFFFF2)
T58F0 000:621.938 - 0.005ms returns 0x00000008
T58F0 000:621.943 JLINK_Go()
T58F0 000:621.954   CPU_ReadMem(4 bytes @ 0xE0001000)
T58F0 000:630.648 - 8.704ms
T58F0 000:630.665 JLINK_IsHalted()
T58F0 000:639.111   CPU_ReadMem(2 bytes @ 0x20000000)
T58F0 000:640.030 - 9.364ms returns TRUE
T58F0 000:640.043 JLINK_ReadReg(R15 (PC))
T58F0 000:640.055 - 0.011ms returns 0x20000000
T58F0 000:640.130 JLINK_ClrBPEx(BPHandle = 0x00000008)
T58F0 000:640.137 - 0.007ms returns 0x00
T58F0 000:640.145 JLINK_ReadReg(R0)
T58F0 000:640.150 - 0.005ms returns 0x00000001
T58F0 000:640.157 JLINK_HasError()
T58F0 000:640.164 JLINK_WriteReg(R0, 0x08003000)
T58F0 000:640.170 - 0.006ms returns 0
T58F0 000:640.176 JLINK_WriteReg(R1, 0x00001000)
T58F0 000:640.181 - 0.005ms returns 0
T58F0 000:640.187 JLINK_WriteReg(R2, 0x000000FF)
T58F0 000:640.192 - 0.005ms returns 0
T58F0 000:640.198 JLINK_WriteReg(R3, 0x00000000)
T58F0 000:640.203 - 0.004ms returns 0
T58F0 000:640.208 JLINK_WriteReg(R4, 0x00000000)
T58F0 000:640.213 - 0.004ms returns 0
T58F0 000:640.219 JLINK_WriteReg(R5, 0x00000000)
T58F0 000:640.224 - 0.004ms returns 0
T58F0 000:640.235 JLINK_WriteReg(R6, 0x00000000)
T58F0 000:640.239 - 0.004ms returns 0
T58F0 000:640.245 JLINK_WriteReg(R7, 0x00000000)
T58F0 000:640.250 - 0.004ms returns 0
T58F0 000:640.256 JLINK_WriteReg(R8, 0x00000000)
T58F0 000:640.261 - 0.004ms returns 0
T58F0 000:640.266 JLINK_WriteReg(R9, 0x20000288)
T58F0 000:640.271 - 0.004ms returns 0
T58F0 000:640.277 JLINK_WriteReg(R10, 0x00000000)
T58F0 000:640.282 - 0.004ms returns 0
T58F0 000:640.287 JLINK_WriteReg(R11, 0x00000000)
T58F0 000:640.292 - 0.004ms returns 0
T58F0 000:640.298 JLINK_WriteReg(R12, 0x00000000)
T58F0 000:640.303 - 0.004ms returns 0
T58F0 000:640.309 JLINK_WriteReg(R13 (SP), 0x20000800)
T58F0 000:640.314 - 0.005ms returns 0
T58F0 000:640.320 JLINK_WriteReg(R14, 0x20000001)
T58F0 000:640.324 - 0.004ms returns 0
T58F0 000:640.330 JLINK_WriteReg(R15 (PC), 0x20000100)
T58F0 000:640.403 - 0.072ms returns 0
T58F0 000:640.413 JLINK_WriteReg(XPSR, 0x01000000)
T58F0 000:640.418 - 0.005ms returns 0
T58F0 000:640.424 JLINK_WriteReg(MSP, 0x20000800)
T58F0 000:640.428 - 0.004ms returns 0
T58F0 000:640.434 JLINK_WriteReg(PSP, 0x20000800)
T58F0 000:640.439 - 0.004ms returns 0
T58F0 000:640.445 JLINK_WriteReg(CFBP, 0x00000000)
T58F0 000:640.450 - 0.004ms returns 0
T58F0 000:640.456 JLINK_SetBPEx(Addr = 0x20000000, Type = 0xFFFFFFF2)
T58F0 000:640.462 - 0.006ms returns 0x00000009
T58F0 000:640.468 JLINK_Go()
T58F0 000:640.481   CPU_ReadMem(4 bytes @ 0xE0001000)
T58F0 000:649.125 - 8.656ms
T58F0 000:649.143 JLINK_IsHalted()
T58F0 000:652.942 - 3.799ms returns FALSE
T58F0 000:652.955 JLINK_HasError()
T58F0 000:660.889 JLINK_IsHalted()
T58F0 000:669.390   CPU_ReadMem(2 bytes @ 0x20000000)
T58F0 000:670.332 - 9.443ms returns TRUE
T58F0 000:670.345 JLINK_ReadReg(R15 (PC))
T58F0 000:670.353 - 0.007ms returns 0x20000000
T58F0 000:670.421 JLINK_ClrBPEx(BPHandle = 0x00000009)
T58F0 000:670.427 - 0.006ms returns 0x00
T58F0 000:670.433 JLINK_ReadReg(R0)
T58F0 000:670.438 - 0.004ms returns 0x00000000
T58F0 000:671.008 JLINK_HasError()
T58F0 000:671.021 JLINK_WriteReg(R0, 0x08004000)
T58F0 000:671.028 - 0.007ms returns 0
T58F0 000:671.033 JLINK_WriteReg(R1, 0x00001000)
T58F0 000:671.038 - 0.004ms returns 0
T58F0 000:671.044 JLINK_WriteReg(R2, 0x000000FF)
T58F0 000:671.048 - 0.004ms returns 0
T58F0 000:671.053 JLINK_WriteReg(R3, 0x00000000)
T58F0 000:671.058 - 0.004ms returns 0
T58F0 000:671.063 JLINK_WriteReg(R4, 0x00000000)
T58F0 000:671.068 - 0.004ms returns 0
T58F0 000:671.073 JLINK_WriteReg(R5, 0x00000000)
T58F0 000:671.077 - 0.004ms returns 0
T58F0 000:671.083 JLINK_WriteReg(R6, 0x00000000)
T58F0 000:671.087 - 0.004ms returns 0
T58F0 000:671.092 JLINK_WriteReg(R7, 0x00000000)
T58F0 000:671.097 - 0.004ms returns 0
T58F0 000:671.102 JLINK_WriteReg(R8, 0x00000000)
T58F0 000:671.106 - 0.004ms returns 0
T58F0 000:671.112 JLINK_WriteReg(R9, 0x20000288)
T58F0 000:671.116 - 0.004ms returns 0
T58F0 000:671.121 JLINK_WriteReg(R10, 0x00000000)
T58F0 000:671.126 - 0.004ms returns 0
T58F0 000:671.131 JLINK_WriteReg(R11, 0x00000000)
T58F0 000:671.136 - 0.004ms returns 0
T58F0 000:671.141 JLINK_WriteReg(R12, 0x00000000)
T58F0 000:671.146 - 0.004ms returns 0
T58F0 000:671.151 JLINK_WriteReg(R13 (SP), 0x20000800)
T58F0 000:671.156 - 0.005ms returns 0
T58F0 000:671.161 JLINK_WriteReg(R14, 0x20000001)
T58F0 000:671.166 - 0.004ms returns 0
T58F0 000:671.171 JLINK_WriteReg(R15 (PC), 0x20000164)
T58F0 000:671.176 - 0.004ms returns 0
T58F0 000:671.181 JLINK_WriteReg(XPSR, 0x01000000)
T58F0 000:671.185 - 0.004ms returns 0
T58F0 000:671.191 JLINK_WriteReg(MSP, 0x20000800)
T58F0 000:671.195 - 0.004ms returns 0
T58F0 000:671.200 JLINK_WriteReg(PSP, 0x20000800)
T58F0 000:671.205 - 0.004ms returns 0
T58F0 000:671.210 JLINK_WriteReg(CFBP, 0x00000000)
T58F0 000:671.215 - 0.004ms returns 0
T58F0 000:671.221 JLINK_SetBPEx(Addr = 0x20000000, Type = 0xFFFFFFF2)
T58F0 000:671.226 - 0.006ms returns 0x0000000A
T58F0 000:671.232 JLINK_Go()
T58F0 000:671.245   CPU_ReadMem(4 bytes @ 0xE0001000)
T58F0 000:679.850 - 8.617ms
T58F0 000:679.866 JLINK_IsHalted()
T58F0 000:688.241   CPU_ReadMem(2 bytes @ 0x20000000)
T58F0 000:689.224 - 9.357ms returns TRUE
T58F0 000:689.234 JLINK_ReadReg(R15 (PC))
T58F0 000:689.242 - 0.008ms returns 0x20000000
T58F0 000:689.248 JLINK_ClrBPEx(BPHandle = 0x0000000A)
T58F0 000:689.254 - 0.005ms returns 0x00
T58F0 000:689.260 JLINK_ReadReg(R0)
T58F0 000:689.265 - 0.005ms returns 0x00000001
T58F0 000:689.272 JLINK_HasError()
T58F0 000:689.279 JLINK_WriteReg(R0, 0x08004000)
T58F0 000:689.285 - 0.006ms returns 0
T58F0 000:689.291 JLINK_WriteReg(R1, 0x00001000)
T58F0 000:689.296 - 0.005ms returns 0
T58F0 000:689.302 JLINK_WriteReg(R2, 0x000000FF)
T58F0 000:689.307 - 0.004ms returns 0
T58F0 000:689.312 JLINK_WriteReg(R3, 0x00000000)
T58F0 000:689.317 - 0.005ms returns 0
T58F0 000:689.323 JLINK_WriteReg(R4, 0x00000000)
T58F0 000:689.333 - 0.009ms returns 0
T58F0 000:689.342 JLINK_WriteReg(R5, 0x00000000)
T58F0 000:689.347 - 0.004ms returns 0
T58F0 000:689.353 JLINK_WriteReg(R6, 0x00000000)
T58F0 000:689.357 - 0.004ms returns 0
T58F0 000:689.363 JLINK_WriteReg(R7, 0x00000000)
T58F0 000:689.368 - 0.004ms returns 0
T58F0 000:689.374 JLINK_WriteReg(R8, 0x00000000)
T58F0 000:689.378 - 0.004ms returns 0
T58F0 000:689.384 JLINK_WriteReg(R9, 0x20000288)
T58F0 000:689.389 - 0.004ms returns 0
T58F0 000:689.395 JLINK_WriteReg(R10, 0x00000000)
T58F0 000:689.400 - 0.005ms returns 0
T58F0 000:689.406 JLINK_WriteReg(R11, 0x00000000)
T58F0 000:689.410 - 0.004ms returns 0
T58F0 000:689.416 JLINK_WriteReg(R12, 0x00000000)
T58F0 000:689.421 - 0.004ms returns 0
T58F0 000:689.427 JLINK_WriteReg(R13 (SP), 0x20000800)
T58F0 000:689.432 - 0.005ms returns 0
T58F0 000:689.438 JLINK_WriteReg(R14, 0x20000001)
T58F0 000:689.443 - 0.005ms returns 0
T58F0 000:689.448 JLINK_WriteReg(R15 (PC), 0x20000100)
T58F0 000:689.453 - 0.005ms returns 0
T58F0 000:689.459 JLINK_WriteReg(XPSR, 0x01000000)
T58F0 000:689.464 - 0.005ms returns 0
T58F0 000:689.470 JLINK_WriteReg(MSP, 0x20000800)
T58F0 000:689.475 - 0.004ms returns 0
T58F0 000:689.481 JLINK_WriteReg(PSP, 0x20000800)
T58F0 000:689.485 - 0.004ms returns 0
T58F0 000:689.491 JLINK_WriteReg(CFBP, 0x00000000)
T58F0 000:689.496 - 0.004ms returns 0
T58F0 000:689.502 JLINK_SetBPEx(Addr = 0x20000000, Type = 0xFFFFFFF2)
T58F0 000:689.513 - 0.011ms returns 0x0000000B
T58F0 000:689.518 JLINK_Go()
T58F0 000:689.528   CPU_ReadMem(4 bytes @ 0xE0001000)
T58F0 000:698.120 - 8.600ms
T58F0 000:698.139 JLINK_IsHalted()
T58F0 000:701.949 - 3.808ms returns FALSE
T58F0 000:701.968 JLINK_HasError()
T58F0 000:703.869 JLINK_IsHalted()
T58F0 000:712.218   CPU_ReadMem(2 bytes @ 0x20000000)
T58F0 000:713.143 - 9.274ms returns TRUE
T58F0 000:713.162 JLINK_ReadReg(R15 (PC))
T58F0 000:713.172 - 0.009ms returns 0x20000000
T58F0 000:713.180 JLINK_ClrBPEx(BPHandle = 0x0000000B)
T58F0 000:713.187 - 0.007ms returns 0x00
T58F0 000:713.194 JLINK_ReadReg(R0)
T58F0 000:713.201 - 0.006ms returns 0x00000000
T58F0 000:713.827 JLINK_HasError()
T58F0 000:713.842 JLINK_WriteReg(R0, 0x08005000)
T58F0 000:713.850 - 0.008ms returns 0
T58F0 000:713.858 JLINK_WriteReg(R1, 0x00001000)
T58F0 000:713.865 - 0.006ms returns 0
T58F0 000:713.874 JLINK_WriteReg(R2, 0x000000FF)
T58F0 000:713.881 - 0.006ms returns 0
T58F0 000:713.888 JLINK_WriteReg(R3, 0x00000000)
T58F0 000:713.894 - 0.006ms returns 0
T58F0 000:713.901 JLINK_WriteReg(R4, 0x00000000)
T58F0 000:713.908 - 0.006ms returns 0
T58F0 000:713.915 JLINK_WriteReg(R5, 0x00000000)
T58F0 000:713.921 - 0.006ms returns 0
T58F0 000:713.928 JLINK_WriteReg(R6, 0x00000000)
T58F0 000:713.934 - 0.006ms returns 0
T58F0 000:713.942 JLINK_WriteReg(R7, 0x00000000)
T58F0 000:713.948 - 0.006ms returns 0
T58F0 000:713.955 JLINK_WriteReg(R8, 0x00000000)
T58F0 000:713.961 - 0.006ms returns 0
T58F0 000:713.968 JLINK_WriteReg(R9, 0x20000288)
T58F0 000:713.974 - 0.006ms returns 0
T58F0 000:713.981 JLINK_WriteReg(R10, 0x00000000)
T58F0 000:713.988 - 0.006ms returns 0
T58F0 000:713.995 JLINK_WriteReg(R11, 0x00000000)
T58F0 000:714.001 - 0.006ms returns 0
T58F0 000:714.008 JLINK_WriteReg(R12, 0x00000000)
T58F0 000:714.014 - 0.006ms returns 0
T58F0 000:714.022 JLINK_WriteReg(R13 (SP), 0x20000800)
T58F0 000:714.028 - 0.006ms returns 0
T58F0 000:714.036 JLINK_WriteReg(R14, 0x20000001)
T58F0 000:714.042 - 0.006ms returns 0
T58F0 000:714.049 JLINK_WriteReg(R15 (PC), 0x20000164)
T58F0 000:714.055 - 0.006ms returns 0
T58F0 000:714.063 JLINK_WriteReg(XPSR, 0x01000000)
T58F0 000:714.069 - 0.006ms returns 0
T58F0 000:714.076 JLINK_WriteReg(MSP, 0x20000800)
T58F0 000:714.082 - 0.006ms returns 0
T58F0 000:714.089 JLINK_WriteReg(PSP, 0x20000800)
T58F0 000:714.095 - 0.006ms returns 0
T58F0 000:714.103 JLINK_WriteReg(CFBP, 0x00000000)
T58F0 000:714.109 - 0.006ms returns 0
T58F0 000:714.116 JLINK_SetBPEx(Addr = 0x20000000, Type = 0xFFFFFFF2)
T58F0 000:714.124 - 0.008ms returns 0x0000000C
T58F0 000:714.137 JLINK_Go()
T58F0 000:714.156   CPU_ReadMem(4 bytes @ 0xE0001000)
T58F0 000:722.740 - 8.602ms
T58F0 000:722.760 JLINK_IsHalted()
T58F0 000:731.202   CPU_ReadMem(2 bytes @ 0x20000000)
T58F0 000:732.126 - 9.365ms returns TRUE
T58F0 000:732.152 JLINK_ReadReg(R15 (PC))
T58F0 000:732.162 - 0.010ms returns 0x20000000
T58F0 000:732.172 JLINK_ClrBPEx(BPHandle = 0x0000000C)
T58F0 000:732.179 - 0.007ms returns 0x00
T58F0 000:732.188 JLINK_ReadReg(R0)
T58F0 000:732.195 - 0.006ms returns 0x00000001
T58F0 000:732.204 JLINK_HasError()
T58F0 000:732.257 JLINK_WriteReg(R0, 0x08005000)
T58F0 000:732.273 - 0.015ms returns 0
T58F0 000:732.282 JLINK_WriteReg(R1, 0x00001000)
T58F0 000:732.288 - 0.006ms returns 0
T58F0 000:732.296 JLINK_WriteReg(R2, 0x000000FF)
T58F0 000:732.302 - 0.006ms returns 0
T58F0 000:732.309 JLINK_WriteReg(R3, 0x00000000)
T58F0 000:732.315 - 0.006ms returns 0
T58F0 000:732.322 JLINK_WriteReg(R4, 0x00000000)
T58F0 000:732.328 - 0.006ms returns 0
T58F0 000:732.334 JLINK_WriteReg(R5, 0x00000000)
T58F0 000:732.340 - 0.005ms returns 0
T58F0 000:732.347 JLINK_WriteReg(R6, 0x00000000)
T58F0 000:732.353 - 0.006ms returns 0
T58F0 000:732.360 JLINK_WriteReg(R7, 0x00000000)
T58F0 000:732.366 - 0.006ms returns 0
T58F0 000:732.373 JLINK_WriteReg(R8, 0x00000000)
T58F0 000:732.379 - 0.006ms returns 0
T58F0 000:732.386 JLINK_WriteReg(R9, 0x20000288)
T58F0 000:732.392 - 0.005ms returns 0
T58F0 000:732.399 JLINK_WriteReg(R10, 0x00000000)
T58F0 000:732.405 - 0.006ms returns 0
T58F0 000:732.412 JLINK_WriteReg(R11, 0x00000000)
T58F0 000:732.418 - 0.006ms returns 0
T58F0 000:732.425 JLINK_WriteReg(R12, 0x00000000)
T58F0 000:732.431 - 0.006ms returns 0
T58F0 000:732.438 JLINK_WriteReg(R13 (SP), 0x20000800)
T58F0 000:732.444 - 0.006ms returns 0
T58F0 000:732.451 JLINK_WriteReg(R14, 0x20000001)
T58F0 000:732.457 - 0.006ms returns 0
T58F0 000:732.464 JLINK_WriteReg(R15 (PC), 0x20000100)
T58F0 000:732.470 - 0.006ms returns 0
T58F0 000:732.477 JLINK_WriteReg(XPSR, 0x01000000)
T58F0 000:732.483 - 0.006ms returns 0
T58F0 000:732.490 JLINK_WriteReg(MSP, 0x20000800)
T58F0 000:732.496 - 0.005ms returns 0
T58F0 000:732.503 JLINK_WriteReg(PSP, 0x20000800)
T58F0 000:732.509 - 0.005ms returns 0
T58F0 000:732.516 JLINK_WriteReg(CFBP, 0x00000000)
T58F0 000:732.522 - 0.005ms returns 0
T58F0 000:732.529 JLINK_SetBPEx(Addr = 0x20000000, Type = 0xFFFFFFF2)
T58F0 000:732.537 - 0.007ms returns 0x0000000D
T58F0 000:732.544 JLINK_Go()
T58F0 000:732.558   CPU_ReadMem(4 bytes @ 0xE0001000)
T58F0 000:741.137 - 8.592ms
T58F0 000:741.162 JLINK_IsHalted()
T58F0 000:744.966 - 3.802ms returns FALSE
T58F0 000:744.994 JLINK_HasError()
T58F0 000:746.814 JLINK_IsHalted()
T58F0 000:755.287   CPU_ReadMem(2 bytes @ 0x20000000)
T58F0 000:756.254 - 9.439ms returns TRUE
T58F0 000:756.272 JLINK_ReadReg(R15 (PC))
T58F0 000:756.287 - 0.014ms returns 0x20000000
T58F0 000:756.298 JLINK_ClrBPEx(BPHandle = 0x0000000D)
T58F0 000:756.309 - 0.010ms returns 0x00
T58F0 000:756.320 JLINK_ReadReg(R0)
T58F0 000:756.330 - 0.010ms returns 0x00000000
T58F0 000:757.060 JLINK_HasError()
T58F0 000:757.093 JLINK_WriteReg(R0, 0x00000001)
T58F0 000:757.107 - 0.014ms returns 0
T58F0 000:757.120 JLINK_WriteReg(R1, 0x00001000)
T58F0 000:757.129 - 0.010ms returns 0
T58F0 000:757.140 JLINK_WriteReg(R2, 0x000000FF)
T58F0 000:757.150 - 0.009ms returns 0
T58F0 000:757.163 JLINK_WriteReg(R3, 0x00000000)
T58F0 000:757.173 - 0.010ms returns 0
T58F0 000:757.253 JLINK_WriteReg(R4, 0x00000000)
T58F0 000:757.276 - 0.023ms returns 0
T58F0 000:757.289 JLINK_WriteReg(R5, 0x00000000)
T58F0 000:757.298 - 0.009ms returns 0
T58F0 000:757.310 JLINK_WriteReg(R6, 0x00000000)
T58F0 000:757.319 - 0.009ms returns 0
T58F0 000:757.330 JLINK_WriteReg(R7, 0x00000000)
T58F0 000:757.340 - 0.009ms returns 0
T58F0 000:757.351 JLINK_WriteReg(R8, 0x00000000)
T58F0 000:757.360 - 0.009ms returns 0
T58F0 000:757.371 JLINK_WriteReg(R9, 0x20000288)
T58F0 000:757.380 - 0.009ms returns 0
T58F0 000:757.391 JLINK_WriteReg(R10, 0x00000000)
T58F0 000:757.409 - 0.018ms returns 0
T58F0 000:757.426 JLINK_WriteReg(R11, 0x00000000)
T58F0 000:757.437 - 0.010ms returns 0
T58F0 000:757.448 JLINK_WriteReg(R12, 0x00000000)
T58F0 000:757.458 - 0.010ms returns 0
T58F0 000:757.470 JLINK_WriteReg(R13 (SP), 0x20000800)
T58F0 000:757.481 - 0.011ms returns 0
T58F0 000:757.492 JLINK_WriteReg(R14, 0x20000001)
T58F0 000:757.503 - 0.010ms returns 0
T58F0 000:757.514 JLINK_WriteReg(R15 (PC), 0x20000064)
T58F0 000:757.524 - 0.010ms returns 0
T58F0 000:757.536 JLINK_WriteReg(XPSR, 0x01000000)
T58F0 000:757.545 - 0.010ms returns 0
T58F0 000:757.557 JLINK_WriteReg(MSP, 0x20000800)
T58F0 000:757.567 - 0.009ms returns 0
T58F0 000:757.578 JLINK_WriteReg(PSP, 0x20000800)
T58F0 000:757.588 - 0.009ms returns 0
T58F0 000:757.599 JLINK_WriteReg(CFBP, 0x00000000)
T58F0 000:757.609 - 0.010ms returns 0
T58F0 000:757.622 JLINK_SetBPEx(Addr = 0x20000000, Type = 0xFFFFFFF2)
T58F0 000:757.635 - 0.013ms returns 0x0000000E
T58F0 000:757.646 JLINK_Go()
T58F0 000:757.670   CPU_ReadMem(4 bytes @ 0xE0001000)
T58F0 000:766.413 - 8.765ms
T58F0 000:766.441 JLINK_IsHalted()
T58F0 000:774.870   CPU_ReadMem(2 bytes @ 0x20000000)
T58F0 000:775.780 - 9.339ms returns TRUE
T58F0 000:775.791 JLINK_ReadReg(R15 (PC))
T58F0 000:775.798 - 0.007ms returns 0x20000000
T58F0 000:775.804 JLINK_ClrBPEx(BPHandle = 0x0000000E)
T58F0 000:775.809 - 0.005ms returns 0x00
T58F0 000:775.815 JLINK_ReadReg(R0)
T58F0 000:775.820 - 0.004ms returns 0x00000000
T58F0 000:842.372 JLINK_WriteMem(0x20000000, 0x290 Bytes, ...)
T58F0 000:842.389   Data:  00 BE 0A E0 0D 78 2D 06 68 40 08 24 40 00 00 D3 ...
T58F0 000:842.415   CPU_WriteMem(656 bytes @ 0x20000000)
T58F0 000:854.768 - 12.395ms returns 0x290
T58F0 000:854.822 JLINK_HasError()
T58F0 000:854.831 JLINK_WriteReg(R0, 0x08000000)
T58F0 000:854.839 - 0.008ms returns 0
T58F0 000:854.845 JLINK_WriteReg(R1, 0x00B71B00)
T58F0 000:854.850 - 0.004ms returns 0
T58F0 000:854.855 JLINK_WriteReg(R2, 0x00000002)
T58F0 000:854.859 - 0.004ms returns 0
T58F0 000:854.865 JLINK_WriteReg(R3, 0x00000000)
T58F0 000:854.869 - 0.004ms returns 0
T58F0 000:854.874 JLINK_WriteReg(R4, 0x00000000)
T58F0 000:854.879 - 0.004ms returns 0
T58F0 000:854.884 JLINK_WriteReg(R5, 0x00000000)
T58F0 000:854.888 - 0.004ms returns 0
T58F0 000:854.893 JLINK_WriteReg(R6, 0x00000000)
T58F0 000:854.898 - 0.004ms returns 0
T58F0 000:854.903 JLINK_WriteReg(R7, 0x00000000)
T58F0 000:854.907 - 0.004ms returns 0
T58F0 000:854.913 JLINK_WriteReg(R8, 0x00000000)
T58F0 000:854.917 - 0.004ms returns 0
T58F0 000:854.922 JLINK_WriteReg(R9, 0x20000288)
T58F0 000:854.927 - 0.004ms returns 0
T58F0 000:854.932 JLINK_WriteReg(R10, 0x00000000)
T58F0 000:854.936 - 0.004ms returns 0
T58F0 000:854.942 JLINK_WriteReg(R11, 0x00000000)
T58F0 000:854.946 - 0.004ms returns 0
T58F0 000:854.951 JLINK_WriteReg(R12, 0x00000000)
T58F0 000:854.956 - 0.004ms returns 0
T58F0 000:854.961 JLINK_WriteReg(R13 (SP), 0x20000800)
T58F0 000:854.967 - 0.005ms returns 0
T58F0 000:854.972 JLINK_WriteReg(R14, 0x20000001)
T58F0 000:854.976 - 0.004ms returns 0
T58F0 000:854.982 JLINK_WriteReg(R15 (PC), 0x20000022)
T58F0 000:854.986 - 0.004ms returns 0
T58F0 000:854.991 JLINK_WriteReg(XPSR, 0x01000000)
T58F0 000:854.996 - 0.004ms returns 0
T58F0 000:855.001 JLINK_WriteReg(MSP, 0x20000800)
T58F0 000:855.005 - 0.004ms returns 0
T58F0 000:855.011 JLINK_WriteReg(PSP, 0x20000800)
T58F0 000:855.015 - 0.004ms returns 0
T58F0 000:855.020 JLINK_WriteReg(CFBP, 0x00000000)
T58F0 000:855.025 - 0.004ms returns 0
T58F0 000:855.031 JLINK_SetBPEx(Addr = 0x20000000, Type = 0xFFFFFFF2)
T58F0 000:855.041   CPU_ReadMem(4 bytes @ 0x20000000)
T58F0 000:855.904   CPU_WriteMem(4 bytes @ 0x20000000)
T58F0 000:856.854   CPU_ReadMem(4 bytes @ 0x20000000)
T58F0 000:857.791   CPU_WriteMem(4 bytes @ 0x20000000)
T58F0 000:858.756   CPU_ReadMem(2 bytes @ 0x20000000)
T58F0 000:859.740 - 4.709ms returns 0x0000000F
T58F0 000:859.757 JLINK_Go()
T58F0 000:859.775   CPU_WriteMem(2 bytes @ 0x20000000)
T58F0 000:860.674   CPU_ReadMem(4 bytes @ 0xE0001000)
T58F0 000:869.263 - 9.505ms
T58F0 000:869.281 JLINK_IsHalted()
T58F0 000:877.693   CPU_ReadMem(2 bytes @ 0x20000000)
T58F0 000:878.627 - 9.345ms returns TRUE
T58F0 000:878.641 JLINK_ReadReg(R15 (PC))
T58F0 000:878.648 - 0.008ms returns 0x20000000
T58F0 000:878.656 JLINK_ClrBPEx(BPHandle = 0x0000000F)
T58F0 000:878.661 - 0.005ms returns 0x00
T58F0 000:878.668 JLINK_ReadReg(R0)
T58F0 000:878.673 - 0.005ms returns 0x00000000
T58F0 000:879.020 JLINK_WriteMem(0x20000290, 0x80 Bytes, ...)
T58F0 000:879.029   Data:  E0 05 00 20 D9 00 00 08 11 19 00 08 09 15 00 08 ...
T58F0 000:879.044   CPU_WriteMem(128 bytes @ 0x20000290)
T58F0 000:882.477 - 3.457ms returns 0x80
T58F0 000:882.486 JLINK_HasError()
T58F0 000:882.493 JLINK_WriteReg(R0, 0x08000000)
T58F0 000:882.499 - 0.006ms returns 0
T58F0 000:882.505 JLINK_WriteReg(R1, 0x00000080)
T58F0 000:882.510 - 0.005ms returns 0
T58F0 000:882.516 JLINK_WriteReg(R2, 0x20000290)
T58F0 000:882.521 - 0.005ms returns 0
T58F0 000:882.527 JLINK_WriteReg(R3, 0x00000000)
T58F0 000:882.532 - 0.005ms returns 0
T58F0 000:882.538 JLINK_WriteReg(R4, 0x00000000)
T58F0 000:882.543 - 0.005ms returns 0
T58F0 000:882.548 JLINK_WriteReg(R5, 0x00000000)
T58F0 000:882.554 - 0.005ms returns 0
T58F0 000:882.559 JLINK_WriteReg(R6, 0x00000000)
T58F0 000:882.565 - 0.005ms returns 0
T58F0 000:882.570 JLINK_WriteReg(R7, 0x00000000)
T58F0 000:882.575 - 0.005ms returns 0
T58F0 000:882.581 JLINK_WriteReg(R8, 0x00000000)
T58F0 000:882.587 - 0.005ms returns 0
T58F0 000:882.592 JLINK_WriteReg(R9, 0x20000288)
T58F0 000:882.598 - 0.005ms returns 0
T58F0 000:882.604 JLINK_WriteReg(R10, 0x00000000)
T58F0 000:882.609 - 0.005ms returns 0
T58F0 000:882.615 JLINK_WriteReg(R11, 0x00000000)
T58F0 000:882.620 - 0.005ms returns 0
T58F0 000:882.626 JLINK_WriteReg(R12, 0x00000000)
T58F0 000:882.631 - 0.005ms returns 0
